!Created with skrf (http://scikit-rf.org).
# GHz S RI R 50.0 
!freq	ReS11	ImS11	ReS21	ImS21	ReS12	ImS12	ReS22	ImS22	
0.05	-0.001390994	0.001581907	0.02995682	-0.008631706	0.03048134	-0.007428169	-0.00225234	-0.003077745	
0.15	0.001464844	0.002274752	0.02330208	-0.02043915	0.02330589	-0.02035236	0.004552126	-0.0003652573	
0.25	0.00188756	0.003582239	0.01159477	-0.02866364	0.01144505	-0.02870369	0.006205082	0.004673958	
0.35	0.003534317	0.004121304	-0.002861023	-0.03069305	-0.002965927	-0.03092957	0.004230499	0.00632906	
0.45	0.004685402	0.003966331	-0.01679611	-0.0259819	-0.01646805	-0.02601242	0.003905296	0.0053339	
0.55	0.005651474	0.003312111	-0.02675629	-0.01559067	-0.02656937	-0.01535416	0.004277706	0.003108025	
0.65	0.005785465	0.003333092	-0.03079605	-0.001768112	-0.03070068	-0.00163269	0.006030321	0.001207113	
0.75	0.006563663	0.004646778	-0.02808094	0.01254559	-0.02800941	0.01242733	0.007347822	0.000239849	
0.85	0.01009083	0.006603241	-0.01925659	0.02392673	-0.01923943	0.02375793	0.007664442	-0.001246452	
0.95	0.01413727	0.005126953	-0.006272316	0.03000164	-0.006353378	0.02980804	0.006582022	-0.003617764	
1.05	0.01661777	0.00204372	0.00822258	0.02959824	0.00814247	0.02943611	0.005550385	-0.005712509	
1.15	0.01856041	-0.001462936	0.0207634	0.02262497	0.02033615	0.02257156	0.004188538	-0.006206036	
1.25	0.01988792	-0.005469322	0.02861595	0.01065254	0.02866173	0.01069641	0.002396107	-0.005973577	
1.35	0.02069283	-0.01122189	0.0303421	-0.003376961	0.03031921	-0.003611565	-0.0001821518	-0.00540185	
1.45	0.01866341	-0.01790905	0.02518463	-0.01691532	0.02510548	-0.01715279	-0.002444983	-0.004752398	
1.55	0.01435471	-0.0254221	0.01461601	-0.0269556	0.01492882	-0.02627468	-0.004771709	-0.003339767	
1.65	0.0072422	-0.02798462	0.0011692	-0.03024578	0.00131226	-0.0303936	-0.006366968	-0.001027822	
1.75	0.00066853	-0.02911758	-0.01283264	-0.02766991	-0.0127964	-0.02743149	-0.007162571	0.001971483	
1.85	-0.006435394	-0.0290432	-0.02395821	-0.01856422	-0.02383614	-0.01873589	-0.006579161	0.004378557	
1.95	-0.01414299	-0.02587128	-0.03000832	-0.005744934	-0.02978516	-0.005809784	-0.004467726	0.00676775	
2.05	-0.01969337	-0.02191162	-0.02925491	0.00825882	-0.02903461	0.00844097	-0.00125885	0.009197712	
2.15	-0.02533531	-0.01617813	-0.02214527	0.02081585	-0.02210426	0.02067184	0.002180099	0.01226282	
2.25	-0.02807999	-0.01048088	-0.01025581	0.02860069	-0.01016521	0.02853584	0.005230904	0.01321983	
2.35	-0.02930069	-0.00525856	0.00380135	0.03008842	0.00383186	0.029953	0.007862091	0.01237297	
2.45	-0.03020668	0.00024223	0.01738358	0.02487183	0.01724243	0.02497101	0.01125526	0.009435654	
2.55	-0.02780151	0.0052824	0.02656937	0.01429558	0.02666855	0.01430702	0.01468658	0.00632	
2.65	-0.02749252	0.00834942	0.03044701	0.00063324	0.03004074	0.00071812	0.01737881	0.00259781	
2.75	-0.02746487	0.0124073	0.0271349	-0.01298618	0.02724457	-0.01302338	0.01864338	-0.001161575	
2.85	-0.02635002	0.01865959	0.01832771	-0.02427387	0.0179615	-0.02421761	0.01821327	-0.006069183	
2.95	-0.02367496	0.02282047	0.00526905	-0.02931976	0.00504494	-0.02963543	0.01604557	-0.01033592	
3.05	-0.02038002	0.02756119	-0.008840561	-0.02867508	-0.008974075	-0.028862	0.01212311	-0.01514006	
3.15	-0.01739597	0.03102684	-0.02116966	-0.02183723	-0.02090073	-0.02161789	0.00753498	-0.01905155	
3.25	-0.01125908	0.03695297	-0.02851868	-0.009782791	-0.0285511	-0.009771347	0.00237274	-0.0212326	
3.35	-0.001470566	0.0399456	-0.02970791	0.00452614	-0.02980518	0.00429249	-0.00454998	-0.02116013	
3.45	0.00934219	0.0387001	-0.0245266	0.0173645	-0.02454185	0.01751137	-0.01238632	-0.01931	
3.55	0.0174408	0.03502655	-0.01386166	0.02700329	-0.01403236	0.02675629	-0.01997185	-0.01605606	
3.65	0.02440834	0.03125	-0.0003538132	0.0302372	-0.0001516342	0.03021812	-0.02547073	-0.01039886	
3.75	0.03218651	0.02480316	0.01371193	0.02699661	0.01340485	0.02697182	-0.03009796	-0.002813339	
3.85	0.03600693	0.01576614	0.02425957	0.01791	0.02436066	0.01793289	-0.03170586	0.00580597	
3.95	0.03437424	0.00553131	0.02971268	0.00500488	0.02933121	0.00465775	-0.03147125	0.0162468	
4.05	0.02997589	-0.002269745	0.02864838	-0.009412766	0.02881145	-0.00917244	-0.02873516	0.02598095	
4.15	0.02405548	-0.004792213	0.02143002	-0.02151966	0.02108574	-0.02144146	-0.02453804	0.03476524	
4.25	0.0226326	-0.00717926	0.00927544	-0.0288372	0.00924301	-0.02880478	-0.01712418	0.04170227	
4.35	0.01974869	-0.008420944	-0.00510025	-0.02981949	-0.004909515	-0.029953	-0.00693512	0.04695892	
4.45	0.01710701	-0.008779526	-0.01774597	-0.02435684	-0.01763535	-0.02416611	0.00407791	0.05059814	
4.55	0.01783848	-0.006966591	-0.02709579	-0.01348877	-0.02695847	-0.01338196	0.01504135	0.05180359	
4.65	0.02153778	-0.00737381	-0.0302248	0.00024033	-0.03010941	0.00034904	0.0257988	0.04971313	
4.75	0.02343845	-0.01185894	-0.02680874	0.01398468	-0.02678776	0.01397228	0.03630066	0.04463577	
4.85	0.02132034	-0.01840496	-0.01724243	0.02468014	-0.01751614	0.02476597	0.04555893	0.03695679	
4.95	0.01563454	-0.02507687	-0.004322052	0.03005219	-0.004508972	0.02966976	0.05524063	0.02720261	
5.05	0.00828171	-0.0284481	0.01007652	0.02863884	0.0099659	0.02855492	0.06045532	0.01501846	
5.15	0.00073719	-0.03073883	0.02178574	0.02106094	0.02178764	0.02096558	0.06158447	0.00298309	
5.25	-0.008646011	-0.03190994	0.0289402	0.00845718	0.02908707	0.00878334	0.06166458	-0.009904861	
5.35	-0.01858521	-0.02594757	0.0297718	-0.005366325	0.03007221	-0.005522728	0.05772972	-0.02315712	
5.45	-0.02356911	-0.01447868	0.02420902	-0.01841354	0.02396584	-0.01826763	0.0519104	-0.03404808	
5.55	-0.02275562	-0.003245354	0.01288223	-0.02756786	0.01308918	-0.02767944	0.04403877	-0.04408073	
5.65	-0.01690292	0.00483322	-0.0008926392	-0.03035736	-0.0009765625	-0.03050995	0.03359222	-0.05038071	
5.75	-0.01108646	0.009239674	-0.01493645	-0.02671814	-0.01495743	-0.02679825	0.02252769	-0.05528641	
5.85	-0.005003929	0.01161289	-0.02536774	-0.01702118	-0.02523804	-0.01681137	0.00888062	-0.05674362	
5.95	0.001377106	0.01059723	-0.03033829	-0.003578186	-0.0302887	-0.00352478	-0.003738403	-0.05672455	
6.05	0.007256031	0.004404545	-0.0286541	0.0105257	-0.02867603	0.01074314	-0.01536942	-0.05264664	
6.15	0.00672245	-0.005598068	-0.0204792	0.02274704	-0.02066994	0.02262115	-0.02452469	-0.04566956	
6.25	0.001330376	-0.01183367	-0.008001328	0.02956676	-0.007928848	0.02969933	-0.03132629	-0.03755569	
6.35	-0.003357887	-0.0154314	0.00642586	0.02993584	0.00659752	0.02995491	-0.03446579	-0.02928925	
6.45	-0.007699966	-0.01455975	0.01959229	0.02378082	0.01946449	0.02388	-0.03523254	-0.02050781	
6.55	-0.01177788	-0.01341343	0.02808762	0.01225471	0.0281601	0.01211357	-0.03673172	-0.01114273	
6.65	-0.01477909	-0.008912086	0.03073692	-0.001852989	0.03071308	-0.001908302	-0.03661537	-0.004182816	
6.75	-0.01563454	-0.001844406	0.02653694	-0.01555729	0.02631378	-0.01598072	-0.03436089	0.00081444	
6.85	-0.01253653	0.002539158	0.01646042	-0.0263052	0.0162487	-0.02604198	-0.03047752	0.00468636	
6.95	-0.009633541	0.002650261	0.00263596	-0.03067207	0.00240803	-0.03073978	-0.02523613	0.00797844	
7.05	-0.007210493	0.003328085	-0.01151848	-0.02848053	-0.01169014	-0.02849579	-0.0211668	0.01014805	
7.15	-0.004715681	-0.0006036758	-0.02362251	-0.02005005	-0.02360535	-0.01980209	-0.01717091	0.01242828	
7.25	-0.003476143	-0.00480938	-0.03030968	-0.006988525	-0.03011894	-0.006742477	-0.01505232	0.01168776	
7.35	-0.003997803	-0.008930683	-0.03006649	0.00750923	-0.02989483	0.00770378	-0.01356173	0.01066971	
7.45	-0.008496284	-0.01060581	-0.02329922	0.02060127	-0.02304459	0.02059937	-0.01205063	0.01044655	
7.55	-0.01301479	-0.009277344	-0.01147175	0.02898121	-0.01112556	0.0290432	-0.01082468	0.01010656	
7.65	-0.01397133	-0.003116608	0.00338364	0.03084183	0.00324631	0.03095245	-0.01043415	0.01079369	
7.75	-0.01430511	-0.001940727	0.01726341	0.02593613	0.01696014	0.02591705	-0.01004314	0.01175165	
7.85	-0.02001095	0.0025959	0.02707481	0.01523972	0.02721977	0.01516914	-0.009566307	0.01293612	
7.95	-0.01848125	0.00948715	0.03117561	0.00120735	0.03088379	0.00109673	-0.01032448	0.01458645	
8.05	-0.01304436	0.01612186	0.02817535	-0.01323891	0.0280838	-0.01303768	-0.01013565	0.01571274	
8.15	-0.005843163	0.01764774	0.01887703	-0.02485657	0.01886845	-0.02474499	-0.008131981	0.0173645	
8.25	-0.0005779266	0.01728439	0.00550079	-0.03072166	0.00553513	-0.03060913	-0.004871368	0.01999664	
8.35	0.0046463	0.01864052	-0.009208679	-0.02980423	-0.009204865	-0.02976227	-0.001218796	0.02391624	
8.45	0.01232338	0.02122688	-0.0219841	-0.02206993	-0.02183151	-0.02227974	0.00254726	0.02771187	
8.55	0.02062607	0.02489662	-0.02955818	-0.009346008	-0.02950668	-0.00976944	0.00840569	0.02801323	
8.65	0.024786	0.02095413	-0.03066921	0.00467396	-0.03086376	0.00487804	0.01564789	0.02659607	
8.75	0.02664375	0.01755714	-0.02512741	0.01861572	-0.02528858	0.01852322	0.02481842	0.02313805	
8.85	0.033041	0.0152607	-0.01363945	0.02815437	-0.01386929	0.02770805	0.03367424	0.01852036	
8.95	0.03850365	0.00964355	0.00061989	0.03092957	0.00047493	0.03121567	0.04056931	0.01123047	
9.05	0.04475212	0.00411606	0.01476097	0.02758598	0.0147438	0.02741623	0.04577637	0.00279427	
9.15	0.04974937	-0.007286072	0.02571487	0.01784515	0.02581215	0.0176487	0.04847717	-0.008323669	
9.25	0.04968643	-0.02061844	0.03096199	0.00401497	0.03103638	0.00390816	0.04851532	-0.02146339	
9.35	0.04769897	-0.03637314	0.02913094	-0.0109024	0.02916718	-0.01087952	0.04597092	-0.03668213	
9.45	0.04090881	-0.04899597	0.02142525	-0.02282715	0.02118111	-0.02305984	0.04034042	-0.05051422	
9.55	0.02711105	-0.06022644	0.008255	-0.03004265	0.00824547	-0.03000641	0.03183746	-0.06373596	
9.65	0.00747681	-0.0670166	-0.006515503	-0.03059006	-0.006443024	-0.03041077	0.01812744	-0.07242584	
9.75	-0.01553345	-0.06827927	-0.02005768	-0.02438354	-0.01991272	-0.02410698	0.00184631	-0.07904816	
9.85	-0.042202	-0.06157684	-0.02887726	-0.01261139	-0.02862167	-0.01247978	-0.01649475	-0.08152008	
9.95	-0.0628891	-0.04626465	-0.03139877	0.00193405	-0.03100872	0.00185108	-0.03671646	-0.08038712	
10.05	-0.07913971	-0.02571487	-0.02702236	0.01632214	-0.02656555	0.01634693	-0.05460358	-0.07361603	
10.15	-0.08388901	0.0009346	-0.01651669	0.02692604	-0.01650429	0.02696609	-0.07078552	-0.06411743	
10.25	-0.07665253	0.02634811	-0.002244949	0.0317421	-0.00246048	0.03144836	-0.08368683	-0.05069733	
10.35	-0.06044006	0.04427338	0.0124855	0.02911949	0.01251411	0.02887535	-0.09148407	-0.0335083	
10.45	-0.03967285	0.058321	0.02455139	0.02038193	0.0241642	0.0202198	-0.09745407	-0.01579285	
10.55	-0.01725388	0.06335449	0.03116226	0.00690269	0.03089333	0.00679207	-0.1000481	0.0030098	
10.65	0.0057373	0.05873489	0.03085423	-0.008241653	0.03081131	-0.008223534	-0.0995903	0.02275467	
10.75	0.0226326	0.04147339	0.02352428	-0.02176857	0.02366161	-0.02184486	-0.09159088	0.04161453	
10.85	0.02563286	0.02438354	0.01131439	-0.03038502	0.01059151	-0.03000355	-0.07901001	0.05780792	
10.95	0.01773262	0.00896263	-0.004131317	-0.03159332	-0.004127502	-0.03180313	-0.06494141	0.06919861	
11.05	0.01082945	-0.0002274513	-0.01835251	-0.02629089	-0.01847839	-0.02613258	-0.04852295	0.07623291	
11.15	0.007383585	-0.005920649	-0.02857018	-0.01480293	-0.028265	-0.01454735	-0.03181839	0.08248138	
11.25	-0.002794266	-0.01473618	-0.03202438	0.00022507	-0.03191376	-0.0002059937	-0.01486969	0.08270264	
11.35	-0.01490307	-0.0119257	-0.02896976	0.01466751	-0.02867794	0.01459694	0.0013504	0.07761765	
11.45	-0.01763248	-0.004754066	-0.01860142	0.02634144	-0.01859093	0.02638435	0.01596832	0.07046509	
11.55	-0.01642036	0.00369167	-0.004358292	0.0318718	-0.00412178	0.03194046	0.02685547	0.06142044	
11.65	-0.01163483	0.006867409	0.01069069	0.03039169	0.01098442	0.03024483	0.03660965	0.04982376	
11.75	-0.008641243	0.002512455	0.02400398	0.02212524	0.02389526	0.02173424	0.04164124	0.03667831	
11.85	-0.01383591	0.001903534	0.03131676	0.00849724	0.03113365	0.00845909	0.04447556	0.02436447	
11.95	-0.01856041	0.00602531	0.03156662	-0.00686264	0.03167534	-0.006889343	0.04356194	0.01078415	
12.05	-0.0203104	0.00752449	0.0247488	-0.02088833	0.0246954	-0.02078629	0.03700256	-0.003053665	
12.15	-0.0229845	0.00904655	0.01274204	-0.03017235	0.01261997	-0.0299387	0.02983761	-0.01231194	
12.25	-0.02534771	0.00642967	-0.002681732	-0.03248024	-0.002626419	-0.03219795	0.02193832	-0.01895809	
12.35	-0.02995205	0.01441956	-0.01727295	-0.02748871	-0.01745605	-0.02741051	0.00920677	-0.02257633	
12.45	-0.0288887	0.02431679	-0.02818489	-0.01624489	-0.0280304	-0.01630402	0.00041199	-0.02316856	
12.55	-0.02178955	0.03736115	-0.0326767	-0.001285553	-0.03246307	-0.001079559	-0.01083183	-0.01888657	
12.65	-0.01494598	0.04152298	-0.02976036	0.01382446	-0.02920723	0.01424026	-0.01675415	-0.01458168	
12.75	-0.01003265	0.04501343	-0.02005005	0.02607155	-0.01972771	0.02600479	-0.02392197	-0.007862091	
12.85	-0.003911972	0.0489769	-0.00545311	0.03216553	-0.005334854	0.03213501	-0.02726746	0.00012589	
12.95	0.00795364	0.0524025	0.01005173	0.0313282	0.01026154	0.0311203	-0.02703285	0.00948429	
13.05	0.02293396	0.05435562	0.02349663	0.02304459	0.02329254	0.02295876	-0.02327061	0.0161829	
13.15	0.04030228	0.04523849	0.0314846	0.00936127	0.03136253	0.00959206	-0.01771545	0.02324104	
13.25	0.05212784	0.03016281	0.03235626	-0.006090164	0.03215027	-0.006189346	-0.0116539	0.0276556	
13.35	0.05879211	0.01383209	0.0258379	-0.0203352	0.02587032	-0.02042294	-0.004172325	0.02896786	
13.45	0.06217384	-0.00513649	0.01351643	-0.03043842	0.01350403	-0.02994537	0.00572014	0.02667236	
13.55	0.0623703	-0.02087021	-0.002220154	-0.03290749	-0.00189209	-0.03282738	0.01272392	0.02333641	
13.65	0.05556297	-0.04465675	-0.0170784	-0.02867317	-0.01691246	-0.02849197	0.01848984	0.01736641	
13.75	0.03355789	-0.06742477	-0.02846527	-0.01740456	-0.02807808	-0.01723289	0.02263832	0.0085659	
13.85	0.00279617	-0.07720566	-0.03317642	-0.00189209	-0.03298759	-0.002004623	0.02301502	-0.001814842	
13.95	-0.02416611	-0.07141495	-0.030509	0.01356697	-0.03044796	0.01375961	0.0211401	-0.01241112	
14.05	-0.04533386	-0.06236267	-0.02077484	0.02622414	-0.02066422	0.02627563	0.01698112	-0.02088928	
14.15	-0.06433105	-0.04663849	-0.005859375	0.03258896	-0.006229401	0.03274918	0.00949097	-0.02617264	
14.25	-0.07912827	-0.02383041	0.01017189	0.03198624	0.00983047	0.03186989	-0.002729416	-0.02992821	
14.35	-0.0894928	0.00727081	0.0237236	0.0238533	0.02373505	0.02360535	-0.01655197	-0.03517914	
14.45	-0.08171844	0.04402542	0.03220558	0.00980568	0.03232574	0.00934601	-0.02812576	-0.03613663	
14.55	-0.06153488	0.07105637	0.0334053	-0.006046295	0.03294563	-0.006036758	-0.04332352	-0.03061676	
14.65	-0.03262711	0.08982468	0.02630806	-0.02087116	0.02634621	-0.02091026	-0.05381775	-0.02168655	
14.75	-0.005897522	0.0994339	0.01370239	-0.03091049	0.01361465	-0.03095436	-0.06712723	-0.009292603	
14.85	0.0220871	0.1003265	-0.002407074	-0.03371239	-0.00248909	-0.03360176	-0.07421112	0.00956345	
14.95	0.05358124	0.09500885	-0.01773262	-0.02890205	-0.01790237	-0.02864075	-0.07851791	0.02176666	
15.05	0.08538818	0.07186127	-0.02899742	-0.01694107	-0.02895737	-0.01648903	-0.0762558	0.03952026	
15.15	0.1040573	0.03312683	-0.03375626	-0.001735687	-0.03336525	-0.001487732	-0.06938171	0.05906677	
15.25	0.1068993	-0.004112244	-0.0309639	0.01461983	-0.03070354	0.01442528	-0.05932999	0.077034	
15.35	0.09751129	-0.03735352	-0.02085972	0.02730751	-0.02030373	0.02706432	-0.04899979	0.08906937	
15.45	0.07568741	-0.06705856	-0.005479813	0.03364754	-0.005458832	0.03331757	-0.03004837	0.09685516	
15.55	0.04518127	-0.08524704	0.01104355	0.03236771	0.01097488	0.03233147	-0.009895325	0.1029816	
15.65	0.01505661	-0.09264755	0.02490044	0.02353477	0.02468681	0.02339363	0.00985336	0.1033936	
15.75	-0.02661514	-0.08617783	0.03331947	0.00919724	0.03282928	0.00917816	0.02879333	0.1005936	
15.85	-0.06293869	-0.05916214	0.0334549	-0.007892609	0.03303528	-0.007246017	0.04746246	0.0927887	
15.95	-0.07949066	-0.02393341	0.02629185	-0.02219582	0.02576065	-0.02206421	0.06091309	0.0819397	
16.05	-0.08355713	0.00947571	0.01243019	-0.03189087	0.01280785	-0.03187561	0.07424927	0.06748962	
16.15	-0.07495117	0.03431702	-0.003547668	-0.03461075	-0.003738403	-0.03406525	0.08123779	0.05001831	
16.25	-0.05846977	0.05230713	-0.01931953	-0.02871895	-0.01914597	-0.02838898	0.08257675	0.03094482	
16.35	-0.04039383	0.06459808	-0.03016663	-0.01615524	-0.03025436	-0.0160923	0.07943726	0.0129776	
16.45	-0.01386261	0.07643127	-0.03471756	4.959e-05	-0.03448486	0.00028229	0.07621002	-0.003944397	
16.55	0.01280975	0.07093048	-0.03044701	0.01638412	-0.03025055	0.01669502	0.06691742	-0.0141983	
16.65	0.02566147	0.06208038	-0.0193615	0.02897453	-0.01929188	0.0288744	0.05525017	-0.02541351	
16.75	0.03410339	0.05800629	-0.003295898	0.03493118	-0.00359726	0.03447723	0.04090881	-0.03263474	
16.85	0.03781891	0.05729675	0.01338196	0.03213882	0.01303482	0.03219986	0.02692413	-0.0356102	
16.95	0.04998016	0.05284119	0.02711105	0.02223969	0.02674103	0.02225494	0.0128479	-0.0343895	
17.05	0.06097794	0.04273605	0.03411865	0.00690079	0.03404045	0.00715256	0.00054741	-0.02920628	
17.15	0.07274628	0.02778625	0.033638	-0.01031876	0.03369331	-0.009925842	-0.008800507	-0.02019787	
17.25	0.07971954	0.0110817	0.02475166	-0.02479362	0.02469063	-0.02475929	-0.01325607	-0.009266853	
17.35	0.09066772	-0.01082611	0.01007462	-0.03370285	0.01020432	-0.03358269	-0.01568699	0.00128174	
17.45	0.1002617	-0.0390625	-0.006839752	-0.03424454	-0.007347107	-0.03439903	-0.01406574	0.009764671	
17.55	0.0941658	-0.07241821	-0.02212524	-0.02686691	-0.02265739	-0.02668381	-0.01134491	0.01682281	
17.65	0.07412338	-0.09980392	-0.03264618	-0.01338005	-0.0325985	-0.0130024	-0.003933907	0.02427864	
17.75	0.0480881	-0.1253738	-0.03479385	0.00382423	-0.03484154	0.00393867	0.00240707	0.02981186	
17.85	0.0108719	-0.1502228	-0.02923393	0.01974869	-0.02886009	0.01952839	0.00735092	0.03746796	
17.95	-0.04051971	-0.1597061	-0.01622009	0.03125763	-0.01579666	0.03097534	0.01714897	0.03914833	
18.05	-0.09372711	-0.147644	0.00058365	0.03495979	0.00091171	0.03493309	0.02640724	0.02913666	
18.15	-0.1417236	-0.1154175	0.01741791	0.03034782	0.01737976	0.03026962	0.042099	0.02580643	
18.25	-0.1774597	-0.0770874	0.02968216	0.01841736	0.02954865	0.01836395	0.04876709	0.01782227	
18.35	-0.2022934	-0.02108765	0.03489494	0.00209618	0.03490257	0.00238228	0.05596924	0.00728607	
18.45	-0.2039337	0.0557022	0.03182983	-0.01478958	0.03164482	-0.01473427	0.0520649	-0.003192902	
18.55	-0.1620941	0.1312027	0.02083397	-0.02788639	0.02013111	-0.02814865	0.04932404	-0.01539612	
18.65	-0.1171188	0.1776886	0.00528336	-0.03473091	0.00527191	-0.03454781	0.034832	-0.03298569	
18.75	-0.04759216	0.2115631	-0.01229668	-0.0329113	-0.01247215	-0.03255463	0.03081703	-0.0444088	
18.85	0.0353546	0.2158356	-0.02665329	-0.02305412	-0.02629852	-0.02267838	0.01716042	-0.0487175	
18.95	0.1164856	0.1872406	-0.03455544	-0.007284164	-0.03416443	-0.007253647	0.00139236	-0.05047226	
19.05	0.1791687	0.1303864	-0.03380394	0.01013756	-0.0333519	0.01032448	-0.01528168	-0.05023575	
19.15	0.2168274	0.0466919	-0.02471256	0.0246582	-0.02452087	0.02469826	-0.03398132	-0.04526901	
19.25	0.2127609	-0.03839874	-0.009838104	0.03347015	-0.009607315	0.03334618	-0.0525589	-0.03128815	
19.35	0.1793137	-0.1107254	0.00758934	0.03414536	0.00768471	0.03364182	-0.05905533	-0.01810837	
19.45	0.1248016	-0.1681213	0.02307701	0.02637672	0.02270126	0.02614403	-0.06965256	0.00027466	
19.55	0.050705	-0.2019958	0.03255844	0.01194382	0.03251266	0.01205826	-0.07460022	0.01902008	
19.65	-0.02790833	-0.2045593	0.0344162	-0.005290985	0.03382874	-0.004974365	-0.06793976	0.04677582	
19.75	-0.102829	-0.1813507	0.02766228	-0.02039433	0.02757645	-0.02073288	-0.0611496	0.05780029	
19.85	-0.155014	-0.1310883	0.01435661	-0.03121948	0.01372337	-0.03136063	-0.04861832	0.07643127	
19.95	-0.1873474	-0.07928467	-0.002475739	-0.03448486	-0.002498627	-0.0341835	-0.03221893	0.09205627	
20.05	-0.2061234	-0.0206604	-0.01861191	-0.0291996	-0.01862144	-0.02881622	-0.01412582	0.09995651	
